
T10F4 000:567 SEGGER J-Link V4.88 Log File (0001ms, 0262ms total)
T10F4 000:567 DLL Compiled: Jul 15 2014 08:50:40 (0001ms, 0262ms total)
T10F4 000:567 Logging started @ 2017-07-13 04:42 (0001ms, 0262ms total)
T10F4 000:568 JLINK_SetWarnOutHandler(...) (0000ms, 0262ms total)
T10F4 000:568 JLINK_OpenEx(...)
Firmware: J-Link ARM-OB STM32 compiled Aug 22 2012 19:52:04
Hardware: V7.00
S/N: 20090928
Feature(s): RDI,FlashDL,FlashBP,JFlash,GDBFull  returns O.K. (0259ms, 0521ms total)
T10F4 000:827 JLINK_SetErrorOutHandler(...) (0000ms, 0521ms total)
T10F4 000:827 JLINK_ExecCommand("ProjectFile = "E:\タカラモノ\ROBOCON武大机器人队\stm32f103c8t6最新核心板和2015年驱动板\2015驱动板基础工程\4_串口（发送字符串并返回）\Project\Pro\JLinkSettings.ini"", ...)  returns 0x00 (0001ms, 0522ms total)
T10F4 000:828 JLINK_ExecCommand("Device = STM32F103C8", ...)Device "STM32F103C8" selected (64 KB flash, 20 KB RAM).  returns 0x00 (0001ms, 0523ms total)
T10F4 000:829 JLINK_ExecCommand("DisableConnectionTimeout", ...)  returns 0x01 (0000ms, 0523ms total)
T10F4 000:829 JLINK_GetHardwareVersion()  returns 0x11170 (0000ms, 0523ms total)
T10F4 000:829 JLINK_GetDLLVersion()  returns 48800 (0000ms, 0523ms total)
T10F4 000:829 JLINK_GetFirmwareString(...) (0000ms, 0523ms total)
T10F4 000:830 JLINK_GetDLLVersion()  returns 48800 (0000ms, 0523ms total)
T10F4 000:830 JLINK_GetCompileDateTime() (0000ms, 0523ms total)
T10F4 000:830 JLINK_GetFirmwareString(...) (0000ms, 0523ms total)
T10F4 000:830 JLINK_GetHardwareVersion()  returns 0x11170 (0000ms, 0523ms total)
T10F4 000:831 JLINK_TIF_Select(JLINKARM_TIF_SWD)  returns 0x00 (0001ms, 0524ms total)
T10F4 000:832 JLINK_SetSpeed(2000) (0000ms, 0524ms total)
T10F4 000:832 JLINK_GetId() >0x108 TIF>Found SWD-DP with ID 0x1BA01477 >0x0D TIF> >0x28 TIF> >0x0D TIF> >0x28 TIF> >0x0D TIF> >0x21 TIF> >0x0D TIF> >0x28 TIF> >0x0D TIF> >0x28 TIF> >0x0D TIF> >0x28 TIF> >0x0D TIF> >0x21 TIF> >0x0D TIF> >0x21 TIF> >0x0D TIF> >0x28 TIF> >0x0D TIF> >0x21 TIF> >0x0D TIF> >0x21 TIF> >0x108 TIF>Found SWD-DP with ID 0x1BA01477 >0x0D TIF> >0x21 TIF> >0x0D TIF> >0x28 TIF> >0x0D TIF> >0x28 TIF> >0x0D TIF> >0x21 TIF> >0x0D TIF> >0x28 TIF> >0x0D TIF> >0x21 TIF> >0x0D TIF> >0x21 TIF>
 >0x0D TIF> >0x21 TIF> >0x0D TIF> >0x21 TIF> >0x0D TIF> >0x28 TIF> >0x0D TIF> >0x28 TIF> >0x0D TIF> >0x21 TIF> >0x0D TIF> >0x28 TIF> >0x0D TIF> >0x28 TIF> >0x0D TIF> >0x28 TIF> >0x0D TIF> >0x21 TIF> >0x0D TIF> >0x21 TIF> >0x0D TIF> >0x28 TIF> >0x0D TIF> >0x21 TIF> >0x0D TIF> >0x21 TIF>Found Cortex-M3 r1p1, Little endian. -- CPU_WriteMem(4 bytes @ 0xE0002000) -- CPU_ReadMem(4 bytes @ 0xE000EDF0) -- CPU_ReadMem(4 bytes @ 0xE0002000)FPUnit: 6 code (BP) slots and 2 literal slots
 -- CPU_ReadMem(4 bytes @ 0xE000EDFC) -- CPU_ReadMem(4 bytes @ 0xE0001000) -- CPU_WriteMem(4 bytes @ 0xE0001000) -- CPU_ReadMem(4 bytes @ 0xE00FF010)TPIU fitted. -- CPU_ReadMem(4 bytes @ 0xE00FF014) -- CPU_ReadMem(4 bytes @ 0xE00FF018) >0x0D TIF> >0x21 TIF>  returns 0x1BA01477 (0021ms, 0545ms total)
T10F4 000:853 JLINK_GetDeviceFamily()  returns 3 (0000ms, 0545ms total)
T10F4 000:853 JLINK_ReadMem (0xE00FFFF0, 0x0010 Bytes, ...) -- CPU is running -- CPU_ReadMem(16 bytes @ 0xE00FFFF0) - Data: 0D 00 00 00 10 00 00 00 05 00 00 00 B1 00 00 00  returns 0x00 (0001ms, 0546ms total)
T10F4 000:854 JLINK_ReadMem (0xE00FFFD0, 0x0020 Bytes, ...) -- CPU is running -- CPU_ReadMem(32 bytes @ 0xE00FFFD0) - Data: 00 00 00 00 00 00 00 00 00 00 00 00 00 00 00 00 ...  returns 0x00 (0001ms, 0547ms total)
T10F4 000:855 JLINK_ReadMem (0xE00FF000, 0x0018 Bytes, ...) -- CPU is running -- CPU_ReadMem(24 bytes @ 0xE00FF000) - Data: 03 F0 F0 FF 03 20 F0 FF 03 30 F0 FF 03 10 F0 FF ...  returns 0x00 (0001ms, 0548ms total)
T10F4 000:856 JLINK_ReadMemU32(0xE000ED00, 0x0001 Items, ...) -- CPU is running -- CPU_ReadMem(4 bytes @ 0xE000ED00) - Data: 31 C2 1F 41  returns 0x01 (0000ms, 0548ms total)
T10F4 000:856 JLINK_SetResetType(JLINKARM_RESET_TYPE_NORMAL)  returns JLINKARM_RESET_TYPE_NORMAL (0000ms, 0548ms total)
T10F4 000:856 JLINK_Reset() -- CPU is running -- CPU_WriteMem(4 bytes @ 0xE000EDF0) -- CPU is running -- CPU_WriteMem(4 bytes @ 0xE000EDFC) >0x35 TIF> -- CPU is running -- CPU_WriteMem(4 bytes @ 0xE000ED0C) -- CPU is running -- CPU_ReadMem(4 bytes @ 0xE000EDF0) -- CPU is running -- CPU_ReadMem(4 bytes @ 0xE000EDF0) -- CPU is running -- CPU_WriteMem(4 bytes @ 0xE000EDF0) -- CPU is running -- CPU_WriteMem(4 bytes @ 0xE000EDFC) -- CPU is running -- CPU_ReadMem(4 bytes @ 0xE000EDF0)
 -- CPU_WriteMem(4 bytes @ 0xE0002000) -- CPU_ReadMem(4 bytes @ 0xE000EDFC) -- CPU_ReadMem(4 bytes @ 0xE0001000) (0019ms, 0567ms total)
T10F4 000:875 JLINK_ReadReg(R15 (PC))  returns 0x08000E38 (0000ms, 0567ms total)
T10F4 000:875 JLINK_ReadReg(XPSR)  returns 0x01000000 (0000ms, 0567ms total)
T10F4 000:875 JLINK_Halt()  returns 0x00 (0000ms, 0567ms total)
T10F4 000:875 JLINK_IsHalted()  returns TRUE (0000ms, 0567ms total)
T10F4 000:875 JLINK_ReadMemU32(0xE000EDF0, 0x0001 Items, ...) -- CPU_ReadMem(4 bytes @ 0xE000EDF0) - Data: 03 00 03 00  returns 0x01 (0000ms, 0567ms total)
T10F4 000:875 JLINK_WriteU32(0xE000EDF0, 0xA05F0003) -- CPU_WriteMem(4 bytes @ 0xE000EDF0)  returns 0x00 (0001ms, 0568ms total)
T10F4 000:876 JLINK_WriteU32(0xE000EDFC, 0x01000000) -- CPU_WriteMem(4 bytes @ 0xE000EDFC)  returns 0x00 (0001ms, 0569ms total)
T10F4 000:877 JLINK_GetHWStatus(...)  returns 0x00 (0000ms, 0569ms total)
T10F4 000:878 JLINK_GetNumBPUnits(Type = 0xFFFFFF00)  returns 0x06 (0000ms, 0569ms total)
T10F4 000:878 JLINK_GetNumBPUnits(Type = 0xF0)  returns 0x2000 (0000ms, 0569ms total)
T10F4 000:878 JLINK_GetNumWPUnits()  returns 0x04 (0000ms, 0569ms total)
T10F4 000:878 JLINK_GetSpeed()  returns 0x7D0 (0001ms, 0570ms total)
T10F4 000:879 JLINK_ReadMemU32(0xE000E004, 0x0001 Items, ...) -- CPU_ReadMem(4 bytes @ 0xE000E004) - Data: 01 00 00 00  returns 0x01 (0000ms, 0570ms total)
T10F4 000:879 JLINK_ReadMemU32(0xE000E004, 0x0001 Items, ...) -- CPU_ReadMem(4 bytes @ 0xE000E004) - Data: 01 00 00 00  returns 0x01 (0001ms, 0571ms total)
T10F4 000:880 JLINK_WriteMem(0xE0001000, 0x001C Bytes, ...) - Data: 01 00 00 00 00 00 00 00 00 00 00 00 00 00 00 00 ... -- CPU_WriteMem(28 bytes @ 0xE0001000)  returns 0x1C (0001ms, 0572ms total)
T10F4 000:881 JLINK_ReadMem (0xE0001000, 0x001C Bytes, ...) -- CPU_ReadMem(28 bytes @ 0xE0001000) - Data: 01 00 00 40 00 00 00 00 00 00 00 00 00 00 00 00 ...  returns 0x00 (0000ms, 0572ms total)
T10F4 000:881 JLINK_ReadReg(R15 (PC))  returns 0x08000E38 (0000ms, 0572ms total)
T10F4 000:881 JLINK_ReadReg(XPSR)  returns 0x01000000 (0001ms, 0573ms total)
T10F4 001:006 JLINK_SetResetType(JLINKARM_RESET_TYPE_NORMAL)  returns JLINKARM_RESET_TYPE_NORMAL (0000ms, 0573ms total)
T10F4 001:006 JLINK_Reset() -- CPU_WriteMem(4 bytes @ 0xE000EDF0) -- CPU_WriteMem(4 bytes @ 0xE000EDFC) >0x35 TIF> -- CPU_WriteMem(4 bytes @ 0xE000ED0C) -- CPU_ReadMem(4 bytes @ 0xE000EDF0) -- CPU_ReadMem(4 bytes @ 0xE000EDF0) -- CPU_WriteMem(4 bytes @ 0xE000EDF0) -- CPU_WriteMem(4 bytes @ 0xE000EDFC) -- CPU is running -- CPU_ReadMem(4 bytes @ 0xE000EDF0) -- CPU_WriteMem(4 bytes @ 0xE0002000) -- CPU_ReadMem(4 bytes @ 0xE000EDFC) -- CPU_ReadMem(4 bytes @ 0xE0001000) (0019ms, 0592ms total)
T10F4 001:025 JLINK_ReadReg(R15 (PC))  returns 0x08000E38 (0000ms, 0592ms total)
T10F4 001:025 JLINK_ReadReg(XPSR)  returns 0x01000000 (0000ms, 0592ms total)
T10F4 001:026 JLINK_ReadMem (0x08000E38, 0x003C Bytes, ...) -- CPU_ReadMem(128 bytes @ 0x08000E00) -- Updating C cache (128 bytes @ 0x08000E00) -- Read from C cache (60 bytes @ 0x08000E38) - Data: 06 48 80 47 06 48 00 47 FE E7 FE E7 FE E7 FE E7 ...  returns 0x00 (0001ms, 0593ms total)
T1A70 002:509 JLINK_SetBPEx(Addr = 0x08000220, Type = 0xFFFFFFF2)  returns 0x00000001 (0000ms, 0593ms total)
T1A70 002:509 JLINK_Go() -- CPU_WriteMem(4 bytes @ 0xE0002000) -- CPU_WriteMem(4 bytes @ 0xE0002008) -- CPU_WriteMem(4 bytes @ 0xE000200C) -- CPU_WriteMem(4 bytes @ 0xE0002010) -- CPU_WriteMem(4 bytes @ 0xE0002014) -- CPU_WriteMem(4 bytes @ 0xE0002018) -- CPU_WriteMem(4 bytes @ 0xE000201C) -- CPU_WriteMem(4 bytes @ 0xE0001004) (0005ms, 0598ms total)
T1A70 002:615 JLINK_IsHalted()  returns FALSE (0000ms, 0598ms total)
T1A70 002:716 JLINK_IsHalted()  returns FALSE (0000ms, 0598ms total)
T1A70 002:817 JLINK_IsHalted()  returns FALSE (0000ms, 0598ms total)
T1A70 002:918 JLINK_IsHalted()  returns FALSE (0000ms, 0598ms total)
T1A70 003:019 JLINK_IsHalted()  returns FALSE (0001ms, 0599ms total)
T1A70 003:120 JLINK_ReadMemU32(0xE0001004, 0x0001 Items, ...) -- CPU is running -- CPU_ReadMem(4 bytes @ 0xE0001004) - Data: B5 CA 99 02  returns 0x01 (0001ms, 0599ms total)
T1A70 003:122 JLINK_IsHalted()  returns FALSE (0000ms, 0599ms total)
T1A70 003:223 JLINK_IsHalted()  returns FALSE (0000ms, 0599ms total)
T1A70 003:324 JLINK_IsHalted()  returns FALSE (0000ms, 0599ms total)
T1A70 003:425 JLINK_IsHalted()  returns FALSE (0000ms, 0599ms total)
T1A70 003:525 JLINK_IsHalted()  returns FALSE (0001ms, 0600ms total)
T1A70 003:627 JLINK_IsHalted()  returns FALSE (0000ms, 0599ms total)
T1A70 003:728 JLINK_ReadMemU32(0xE0001004, 0x0001 Items, ...) -- CPU is running -- CPU_ReadMem(4 bytes @ 0xE0001004) - Data: CD B5 35 05  returns 0x01 (0000ms, 0599ms total)
T1A70 003:730 JLINK_IsHalted()  returns FALSE (0001ms, 0600ms total)
T1A70 003:831 JLINK_IsHalted()  returns FALSE (0001ms, 0600ms total)
T1A70 003:933 JLINK_IsHalted()  returns FALSE (0000ms, 0599ms total)
T1A70 004:033 JLINK_IsHalted()  returns FALSE (0001ms, 0600ms total)
T1A70 004:134 JLINK_IsHalted()  returns FALSE (0000ms, 0599ms total)
T1A70 004:235 JLINK_IsHalted()  returns FALSE (0000ms, 0599ms total)
T1A70 004:336 JLINK_ReadMemU32(0xE0001004, 0x0001 Items, ...) -- CPU is running -- CPU_ReadMem(4 bytes @ 0xE0001004) - Data: 19 AE D1 07  returns 0x01 (0000ms, 0599ms total)
T1A70 004:337 JLINK_IsHalted()  returns FALSE (0000ms, 0599ms total)
T1A70 004:438 JLINK_IsHalted()  returns FALSE (0000ms, 0599ms total)
T1A70 004:540 JLINK_IsHalted()  returns FALSE (0000ms, 0599ms total)
T1A70 004:641 JLINK_IsHalted()  returns FALSE (0000ms, 0599ms total)
T1A70 004:742 JLINK_IsHalted()  returns FALSE (0000ms, 0599ms total)
T1A70 004:843 JLINK_IsHalted()  returns FALSE (0000ms, 0599ms total)
T1A70 004:943 JLINK_ReadMemU32(0xE0001004, 0x0001 Items, ...) -- CPU is running -- CPU_ReadMem(4 bytes @ 0xE0001004) - Data: 7D 2D 6D 0A  returns 0x01 (0000ms, 0599ms total)
T1A70 004:944 JLINK_IsHalted()  returns FALSE (0001ms, 0600ms total)
T1A70 005:046 JLINK_IsHalted()  returns FALSE (0000ms, 0599ms total)
T1A70 005:147 JLINK_IsHalted()  returns FALSE (0000ms, 0599ms total)
T1A70 005:248 JLINK_IsHalted()  returns FALSE (0000ms, 0599ms total)
T1A70 005:349 JLINK_IsHalted()  returns FALSE (0000ms, 0599ms total)
T1A70 005:450 JLINK_IsHalted()  returns FALSE (0000ms, 0599ms total)
T1A70 005:551 JLINK_ReadMemU32(0xE0001004, 0x0001 Items, ...) -- CPU is running -- CPU_ReadMem(4 bytes @ 0xE0001004) - Data: D7 5F 09 0D  returns 0x01 (0000ms, 0599ms total)
T1A70 005:553 JLINK_IsHalted()  returns FALSE (0000ms, 0599ms total)
T1A70 005:654 JLINK_IsHalted()  returns FALSE (0000ms, 0599ms total)
T1A70 005:756 JLINK_IsHalted()  returns FALSE (0000ms, 0599ms total)
T1A70 005:857 JLINK_IsHalted()  returns FALSE (0000ms, 0599ms total)
T1A70 005:958 JLINK_IsHalted()  returns FALSE (0000ms, 0599ms total)
T1A70 006:059 JLINK_ReadMemU32(0xE0001004, 0x0001 Items, ...) -- CPU is running -- CPU_ReadMem(4 bytes @ 0xE0001004) - Data: 4C B8 36 0F  returns 0x01 (0000ms, 0599ms total)
T1A70 006:060 JLINK_IsHalted()  returns FALSE (0001ms, 0600ms total)
T1A70 006:162 JLINK_IsHalted()  returns FALSE (0000ms, 0599ms total)
T1A70 006:263 JLINK_IsHalted()  returns FALSE (0000ms, 0599ms total)
T1A70 006:364 JLINK_IsHalted()  returns FALSE (0000ms, 0599ms total)
T1A70 006:465 JLINK_IsHalted()  returns FALSE (0000ms, 0599ms total)
T1A70 006:566 JLINK_IsHalted()  returns FALSE (0000ms, 0599ms total)
T1A70 006:667 JLINK_ReadMemU32(0xE0001004, 0x0001 Items, ...) -- CPU is running -- CPU_ReadMem(4 bytes @ 0xE0001004) - Data: 6A 57 D3 11  returns 0x01 (0000ms, 0599ms total)
T1A70 006:668 JLINK_IsHalted()  returns FALSE (0001ms, 0600ms total)
T1A70 006:770 JLINK_IsHalted()  returns FALSE (0000ms, 0599ms total)
T1A70 006:871 JLINK_IsHalted()  returns FALSE (0000ms, 0599ms total)
T1A70 006:973 JLINK_IsHalted()  returns FALSE (0000ms, 0599ms total)
T1A70 007:074 JLINK_IsHalted()  returns FALSE (0001ms, 0600ms total)
T1A70 007:176 JLINK_IsHalted()  returns FALSE (0000ms, 0599ms total)
T1A70 007:277 JLINK_ReadMemU32(0xE0001004, 0x0001 Items, ...) -- CPU is running -- CPU_ReadMem(4 bytes @ 0xE0001004) - Data: EF E1 70 14  returns 0x01 (0000ms, 0599ms total)
T1A70 007:278 JLINK_IsHalted()  returns FALSE (0001ms, 0600ms total)
T1A70 007:380 JLINK_IsHalted()  returns TRUE (0003ms, 0602ms total)
T1A70 007:383 JLINK_Halt()  returns 0x00 (0000ms, 0599ms total)
T1A70 007:383 JLINK_IsHalted()  returns TRUE (0000ms, 0599ms total)
T1A70 007:383 JLINK_IsHalted()  returns TRUE (0000ms, 0599ms total)
T1A70 007:383 JLINK_IsHalted()  returns TRUE (0000ms, 0599ms total)
T1A70 007:383 JLINK_ReadReg(R15 (PC))  returns 0x08000220 (0000ms, 0599ms total)
T1A70 007:383 JLINK_ReadReg(XPSR)  returns 0x01000036 (0000ms, 0599ms total)
T1A70 007:383 JLINK_ClrBPEx(BPHandle = 0x00000001)  returns 0x00 (0000ms, 0599ms total)
T1A70 007:383 JLINK_ReadMemU32(0xE000ED30, 0x0001 Items, ...) -- CPU_ReadMem(4 bytes @ 0xE000ED30) - Data: 03 00 00 00  returns 0x01 (0001ms, 0600ms total)
T1A70 007:384 JLINK_ReadMemU32(0xE0001028, 0x0001 Items, ...) -- CPU_ReadMem(4 bytes @ 0xE0001028) - Data: 00 00 00 00  returns 0x01 (0000ms, 0600ms total)
T1A70 007:384 JLINK_ReadMemU32(0xE0001038, 0x0001 Items, ...) -- CPU_ReadMem(4 bytes @ 0xE0001038) - Data: 00 02 00 00  returns 0x01 (0001ms, 0601ms total)
T1A70 007:385 JLINK_ReadMemU32(0xE0001048, 0x0001 Items, ...) -- CPU_ReadMem(4 bytes @ 0xE0001048) - Data: 00 00 00 00  returns 0x01 (0000ms, 0601ms total)
T1A70 007:385 JLINK_ReadMemU32(0xE0001058, 0x0001 Items, ...) -- CPU_ReadMem(4 bytes @ 0xE0001058) - Data: 00 00 00 00  returns 0x01 (0001ms, 0602ms total)
T1A70 007:386 JLINK_ReadReg(R0)  returns 0x40004400 (0000ms, 0602ms total)
T1A70 007:386 JLINK_ReadReg(R1)  returns 0x00000001 (0000ms, 0602ms total)
T1A70 007:386 JLINK_ReadReg(R2)  returns 0x0000202C (0000ms, 0602ms total)
T1A70 007:386 JLINK_ReadReg(R3)  returns 0xFFFFFFFD (0000ms, 0602ms total)
T1A70 007:386 JLINK_ReadReg(R4)  returns 0x0800109C (0000ms, 0602ms total)
T1A70 007:386 JLINK_ReadReg(R5)  returns 0x0800109C (0000ms, 0602ms total)
T1A70 007:386 JLINK_ReadReg(R6)  returns 0x00000000 (0000ms, 0602ms total)
T1A70 007:386 JLINK_ReadReg(R7)  returns 0x00000000 (0000ms, 0602ms total)
T1A70 007:386 JLINK_ReadReg(R8)  returns 0x00000000 (0000ms, 0602ms total)
T1A70 007:386 JLINK_ReadReg(R9)  returns 0x20000160 (0000ms, 0602ms total)
T1A70 007:386 JLINK_ReadReg(R10)  returns 0x00000000 (0000ms, 0602ms total)
T1A70 007:386 JLINK_ReadReg(R11)  returns 0x00000000 (0001ms, 0603ms total)
T1A70 007:387 JLINK_ReadReg(R12)  returns 0x00000004 (0000ms, 0603ms total)
T1A70 007:387 JLINK_ReadReg(R13 (SP))  returns 0x20000400 (0000ms, 0603ms total)
T1A70 007:387 JLINK_ReadReg(R14)  returns 0xFFFFFFF9 (0000ms, 0603ms total)
T1A70 007:387 JLINK_ReadReg(R15 (PC))  returns 0x08000220 (0000ms, 0603ms total)
T1A70 007:387 JLINK_ReadReg(XPSR)  returns 0x01000036 (0000ms, 0603ms total)
T1A70 007:387 JLINK_ReadReg(MSP)  returns 0x20000400 (0000ms, 0603ms total)
T1A70 007:387 JLINK_ReadReg(PSP)  returns 0x20001000 (0000ms, 0603ms total)
T1A70 007:387 JLINK_ReadReg(CFBP)  returns 0x00000000 (0000ms, 0603ms total)
T10F4 007:388 JLINK_ReadMem (0x20000404, 0x0004 Bytes, ...) -- CPU_ReadMem(64 bytes @ 0x20000400) -- Updating C cache (64 bytes @ 0x20000400) -- Read from C cache (4 bytes @ 0x20000404) - Data: F9 FF FF FF  returns 0x00 (0001ms, 0604ms total)
T10F4 007:389 JLINK_ReadMem (0x20000420, 0x0004 Bytes, ...) -- Read from C cache (4 bytes @ 0x20000420) - Data: 14 01 00 08  returns 0x00 (0000ms, 0604ms total)
T10F4 007:389 JLINK_ReadMem (0x20000424, 0x0004 Bytes, ...) -- Read from C cache (4 bytes @ 0x20000424) - Data: 00 00 00 01  returns 0x00 (0000ms, 0604ms total)
T10F4 007:389 JLINK_ReadMem (0x2000041C, 0x0004 Bytes, ...) -- Read from C cache (4 bytes @ 0x2000041C) - Data: 1B 02 00 08  returns 0x00 (0000ms, 0604ms total)
T10F4 007:389 JLINK_ReadMem (0xE000ED28, 0x0004 Bytes, ...) -- CPU_ReadMem(4 bytes @ 0xE000ED28) - Data: 00 00 00 00  returns 0x00 (0001ms, 0605ms total)
T10F4 007:390 JLINK_ReadMem (0x2000042C, 0x0004 Bytes, ...) -- Read from C cache (4 bytes @ 0x2000042C) - Data: 55 10 00 08  returns 0x00 (0000ms, 0605ms total)
T10F4 007:394 JLINK_ReadMem (0x08000220, 0x003C Bytes, ...) -- CPU_ReadMem(128 bytes @ 0x08000200) -- Updating C cache (128 bytes @ 0x08000200) -- Read from C cache (60 bytes @ 0x08000220) - Data: 40 F2 25 51 0A 48 00 F0 C3 FD 70 B1 40 F2 25 51 ...  returns 0x00 (0002ms, 0607ms total)
T1A70 008:841 JLINK_Step() -- Read from C cache (2 bytes @ 0x08000220) -- CPU_ReadMem(4 bytes @ 0xE0001004) -- Read from C cache (2 bytes @ 0x08000222) -- Not simulated -- CPU_WriteMem(4 bytes @ 0xE0002008)  returns 0x00 (0005ms, 0612ms total)
T1A70 008:846 JLINK_ReadReg(R15 (PC))  returns 0x08000224 (0000ms, 0612ms total)
T1A70 008:846 JLINK_ReadReg(XPSR)  returns 0x01000036 (0000ms, 0612ms total)
T1A70 008:846 JLINK_Step() -- CPU_ReadMem(64 bytes @ 0x08000200) -- Updating C cache (64 bytes @ 0x08000200) -- Read from C cache (2 bytes @ 0x08000224) -- CPU_ReadMem(4 bytes @ 0xE0001004) -- CPU_ReadMem(64 bytes @ 0x08000240) -- Updating C cache (64 bytes @ 0x08000240) -- Read from C cache (4 bytes @ 0x08000250) -- Simulated  returns 0x00 (0003ms, 0615ms total)
T1A70 008:849 JLINK_ReadReg(R15 (PC))  returns 0x08000226 (0000ms, 0615ms total)
T1A70 008:849 JLINK_ReadReg(XPSR)  returns 0x01000036 (0000ms, 0615ms total)
T1A70 008:849 JLINK_SetBPEx(Addr = 0x0800022A, Type = 0xFFFFFFF2)  returns 0x00000002 (0000ms, 0615ms total)
T1A70 008:849 JLINK_SetBPEx(Addr = 0x08000220, Type = 0xFFFFFFF2)  returns 0x00000003 (0000ms, 0615ms total)
T1A70 008:849 JLINK_Go() -- CPU_WriteMem(4 bytes @ 0xE0002000) -- CPU_WriteMem(4 bytes @ 0xE0002000) -- CPU_WriteMem(4 bytes @ 0xE0002008) -- CPU_WriteMem(4 bytes @ 0xE000200C) -- CPU_WriteMem(4 bytes @ 0xE0001004) (0003ms, 0618ms total)
T1A70 008:953 JLINK_IsHalted()  returns TRUE (0003ms, 0621ms total)
T1A70 008:956 JLINK_Halt()  returns 0x00 (0000ms, 0618ms total)
T1A70 008:956 JLINK_IsHalted()  returns TRUE (0000ms, 0618ms total)
T1A70 008:956 JLINK_IsHalted()  returns TRUE (0000ms, 0618ms total)
T1A70 008:956 JLINK_IsHalted()  returns TRUE (0000ms, 0618ms total)
T1A70 008:956 JLINK_ReadReg(R15 (PC))  returns 0x0800022A (0000ms, 0618ms total)
T1A70 008:956 JLINK_ReadReg(XPSR)  returns 0x01000036 (0000ms, 0618ms total)
T1A70 008:956 JLINK_ClrBPEx(BPHandle = 0x00000002)  returns 0x00 (0000ms, 0618ms total)
T1A70 008:956 JLINK_ClrBPEx(BPHandle = 0x00000003)  returns 0x00 (0000ms, 0618ms total)
T1A70 008:956 JLINK_ReadMemU32(0xE000ED30, 0x0001 Items, ...) -- CPU_ReadMem(4 bytes @ 0xE000ED30) - Data: 03 00 00 00  returns 0x01 (0001ms, 0619ms total)
T1A70 008:957 JLINK_ReadMemU32(0xE0001028, 0x0001 Items, ...) -- CPU_ReadMem(4 bytes @ 0xE0001028) - Data: 00 00 00 00  returns 0x01 (0000ms, 0619ms total)
T1A70 008:957 JLINK_ReadMemU32(0xE0001038, 0x0001 Items, ...) -- CPU_ReadMem(4 bytes @ 0xE0001038) - Data: 00 02 00 00  returns 0x01 (0001ms, 0620ms total)
T1A70 008:958 JLINK_ReadMemU32(0xE0001048, 0x0001 Items, ...) -- CPU_ReadMem(4 bytes @ 0xE0001048) - Data: 00 00 00 00  returns 0x01 (0000ms, 0620ms total)
T1A70 008:958 JLINK_ReadMemU32(0xE0001058, 0x0001 Items, ...) -- CPU_ReadMem(4 bytes @ 0xE0001058) - Data: 00 00 00 00  returns 0x01 (0001ms, 0621ms total)
T1A70 008:959 JLINK_Step() -- CPU_ReadMem(64 bytes @ 0x08000200) -- Updating C cache (64 bytes @ 0x08000200) -- Read from C cache (2 bytes @ 0x0800022A) -- CPU_ReadMem(4 bytes @ 0xE0001004) -- Simulated  returns 0x00 (0001ms, 0622ms total)
T1A70 008:960 JLINK_ReadReg(R15 (PC))  returns 0x0800022C (0001ms, 0623ms total)
T1A70 008:961 JLINK_ReadReg(XPSR)  returns 0x01000036 (0000ms, 0623ms total)
T1A70 008:961 JLINK_ReadReg(R0)  returns 0x00000001 (0000ms, 0623ms total)
T1A70 008:961 JLINK_ReadReg(R1)  returns 0x00000525 (0000ms, 0623ms total)
T1A70 008:961 JLINK_ReadReg(R2)  returns 0x40004400 (0000ms, 0623ms total)
T1A70 008:961 JLINK_ReadReg(R3)  returns 0x00000020 (0000ms, 0623ms total)
T1A70 008:961 JLINK_ReadReg(R4)  returns 0x0800109C (0000ms, 0623ms total)
T1A70 008:961 JLINK_ReadReg(R5)  returns 0x0800109C (0000ms, 0623ms total)
T1A70 008:961 JLINK_ReadReg(R6)  returns 0x00000000 (0000ms, 0623ms total)
T1A70 008:961 JLINK_ReadReg(R7)  returns 0x00000000 (0000ms, 0623ms total)
T1A70 008:961 JLINK_ReadReg(R8)  returns 0x00000000 (0000ms, 0623ms total)
T1A70 008:961 JLINK_ReadReg(R9)  returns 0x20000160 (0000ms, 0623ms total)
T1A70 008:961 JLINK_ReadReg(R10)  returns 0x00000000 (0000ms, 0623ms total)
T1A70 008:961 JLINK_ReadReg(R11)  returns 0x00000000 (0000ms, 0623ms total)
T1A70 008:961 JLINK_ReadReg(R12)  returns 0x00000004 (0000ms, 0623ms total)
T1A70 008:961 JLINK_ReadReg(R13 (SP))  returns 0x20000400 (0000ms, 0623ms total)
T1A70 008:961 JLINK_ReadReg(R14)  returns 0x0800022B (0000ms, 0623ms total)
T1A70 008:961 JLINK_ReadReg(R15 (PC))  returns 0x0800022C (0000ms, 0623ms total)
T1A70 008:961 JLINK_ReadReg(XPSR)  returns 0x01000036 (0000ms, 0623ms total)
T1A70 008:961 JLINK_ReadReg(MSP)  returns 0x20000400 (0001ms, 0624ms total)
T1A70 008:962 JLINK_ReadReg(PSP)  returns 0x20001000 (0000ms, 0624ms total)
T1A70 008:962 JLINK_ReadReg(CFBP)  returns 0x00000000 (0000ms, 0624ms total)
T10F4 008:962 JLINK_ReadMem (0x20000404, 0x0004 Bytes, ...) -- CPU_ReadMem(64 bytes @ 0x20000400) -- Updating C cache (64 bytes @ 0x20000400) -- Read from C cache (4 bytes @ 0x20000404) - Data: F9 FF FF FF  returns 0x00 (0001ms, 0625ms total)
T10F4 008:963 JLINK_ReadMem (0x20000420, 0x0004 Bytes, ...) -- Read from C cache (4 bytes @ 0x20000420) - Data: 14 01 00 08  returns 0x00 (0000ms, 0625ms total)
T10F4 008:963 JLINK_ReadMem (0x20000424, 0x0004 Bytes, ...) -- Read from C cache (4 bytes @ 0x20000424) - Data: 00 00 00 01  returns 0x00 (0000ms, 0625ms total)
T10F4 008:963 JLINK_ReadMem (0x2000041C, 0x0004 Bytes, ...) -- Read from C cache (4 bytes @ 0x2000041C) - Data: 1B 02 00 08  returns 0x00 (0000ms, 0625ms total)
T10F4 008:963 JLINK_ReadMem (0xE000ED28, 0x0004 Bytes, ...) -- CPU_ReadMem(4 bytes @ 0xE000ED28) - Data: 00 00 00 00  returns 0x00 (0001ms, 0626ms total)
T10F4 008:964 JLINK_ReadMem (0x2000042C, 0x0004 Bytes, ...) -- Read from C cache (4 bytes @ 0x2000042C) - Data: 55 10 00 08  returns 0x00 (0000ms, 0626ms total)
T10F4 008:967 JLINK_ReadMem (0x0800022C, 0x003C Bytes, ...) -- CPU_ReadMem(64 bytes @ 0x08000240) -- Updating C cache (64 bytes @ 0x08000240) -- Read from C cache (60 bytes @ 0x0800022C) - Data: 40 F2 25 51 07 48 00 F0 B4 FD 40 F2 25 51 05 48 ...  returns 0x00 (0001ms, 0627ms total)
T1A70 009:198 JLINK_Step() -- Read from C cache (2 bytes @ 0x0800022C) -- Read from C cache (2 bytes @ 0x0800022E) -- Not simulated -- CPU_WriteMem(4 bytes @ 0xE0002008) -- CPU_WriteMem(4 bytes @ 0xE000200C) -- CPU_WriteMem(4 bytes @ 0xE0001004)  returns 0x00 (0006ms, 0633ms total)
T1A70 009:204 JLINK_ReadReg(R15 (PC))  returns 0x08000230 (0000ms, 0633ms total)
T1A70 009:204 JLINK_ReadReg(XPSR)  returns 0x01000036 (0000ms, 0633ms total)
T1A70 009:204 JLINK_Step() -- CPU_ReadMem(64 bytes @ 0x08000200) -- Updating C cache (64 bytes @ 0x08000200) -- Read from C cache (2 bytes @ 0x08000230) -- CPU_ReadMem(4 bytes @ 0xE0001004) -- CPU_ReadMem(64 bytes @ 0x08000240) -- Updating C cache (64 bytes @ 0x08000240) -- Read from C cache (4 bytes @ 0x08000250) -- Simulated  returns 0x00 (0003ms, 0636ms total)
T1A70 009:207 JLINK_ReadReg(R15 (PC))  returns 0x08000232 (0000ms, 0636ms total)
T1A70 009:207 JLINK_ReadReg(XPSR)  returns 0x01000036 (0000ms, 0636ms total)
T1A70 009:207 JLINK_SetBPEx(Addr = 0x08000236, Type = 0xFFFFFFF2)  returns 0x00000004 (0000ms, 0636ms total)
T1A70 009:207 JLINK_SetBPEx(Addr = 0x08000220, Type = 0xFFFFFFF2)  returns 0x00000005 (0000ms, 0636ms total)
T1A70 009:207 JLINK_Go() -- CPU_WriteMem(4 bytes @ 0xE0002000) -- CPU_WriteMem(4 bytes @ 0xE0002000) -- CPU_WriteMem(4 bytes @ 0xE0002008) -- CPU_WriteMem(4 bytes @ 0xE000200C) -- CPU_WriteMem(4 bytes @ 0xE0001004) (0004ms, 0640ms total)
T1A70 009:312 JLINK_IsHalted()  returns TRUE (0003ms, 0643ms total)
T1A70 009:315 JLINK_Halt()  returns 0x00 (0000ms, 0640ms total)
T1A70 009:315 JLINK_IsHalted()  returns TRUE (0000ms, 0640ms total)
T1A70 009:315 JLINK_IsHalted()  returns TRUE (0000ms, 0640ms total)
T1A70 009:315 JLINK_IsHalted()  returns TRUE (0000ms, 0640ms total)
T1A70 009:315 JLINK_ReadReg(R15 (PC))  returns 0x08000236 (0000ms, 0640ms total)
T1A70 009:315 JLINK_ReadReg(XPSR)  returns 0x81000036 (0000ms, 0640ms total)
T1A70 009:315 JLINK_ClrBPEx(BPHandle = 0x00000004)  returns 0x00 (0000ms, 0640ms total)
T1A70 009:315 JLINK_ClrBPEx(BPHandle = 0x00000005)  returns 0x00 (0000ms, 0640ms total)
T1A70 009:315 JLINK_ReadMemU32(0xE000ED30, 0x0001 Items, ...) -- CPU_ReadMem(4 bytes @ 0xE000ED30) - Data: 03 00 00 00  returns 0x01 (0000ms, 0640ms total)
T1A70 009:315 JLINK_ReadMemU32(0xE0001028, 0x0001 Items, ...) -- CPU_ReadMem(4 bytes @ 0xE0001028) - Data: 00 00 00 00  returns 0x01 (0001ms, 0641ms total)
T1A70 009:316 JLINK_ReadMemU32(0xE0001038, 0x0001 Items, ...) -- CPU_ReadMem(4 bytes @ 0xE0001038) - Data: 00 02 00 00  returns 0x01 (0000ms, 0641ms total)
T1A70 009:316 JLINK_ReadMemU32(0xE0001048, 0x0001 Items, ...) -- CPU_ReadMem(4 bytes @ 0xE0001048) - Data: 00 00 00 00  returns 0x01 (0001ms, 0642ms total)
T1A70 009:317 JLINK_ReadMemU32(0xE0001058, 0x0001 Items, ...) -- CPU_ReadMem(4 bytes @ 0xE0001058) - Data: 00 00 00 00  returns 0x01 (0000ms, 0642ms total)
T1A70 009:317 JLINK_ReadReg(R0)  returns 0x40004400 (0000ms, 0642ms total)
T1A70 009:317 JLINK_ReadReg(R1)  returns 0x00000525 (0000ms, 0642ms total)
T1A70 009:317 JLINK_ReadReg(R2)  returns 0xFFFFFADA (0000ms, 0642ms total)
T1A70 009:318 JLINK_ReadReg(R3)  returns 0x00000020 (0000ms, 0643ms total)
T1A70 009:318 JLINK_ReadReg(R4)  returns 0x0800109C (0000ms, 0643ms total)
T1A70 009:318 JLINK_ReadReg(R5)  returns 0x0800109C (0000ms, 0643ms total)
T1A70 009:318 JLINK_ReadReg(R6)  returns 0x00000000 (0000ms, 0643ms total)
T1A70 009:318 JLINK_ReadReg(R7)  returns 0x00000000 (0000ms, 0643ms total)
T1A70 009:318 JLINK_ReadReg(R8)  returns 0x00000000 (0000ms, 0643ms total)
T1A70 009:318 JLINK_ReadReg(R9)  returns 0x20000160 (0000ms, 0643ms total)
T1A70 009:318 JLINK_ReadReg(R10)  returns 0x00000000 (0000ms, 0643ms total)
T1A70 009:318 JLINK_ReadReg(R11)  returns 0x00000000 (0000ms, 0643ms total)
T1A70 009:318 JLINK_ReadReg(R12)  returns 0x00000004 (0000ms, 0643ms total)
T1A70 009:318 JLINK_ReadReg(R13 (SP))  returns 0x20000400 (0000ms, 0643ms total)
T1A70 009:318 JLINK_ReadReg(R14)  returns 0x08000237 (0000ms, 0643ms total)
T1A70 009:318 JLINK_ReadReg(R15 (PC))  returns 0x08000236 (0000ms, 0643ms total)
T1A70 009:318 JLINK_ReadReg(XPSR)  returns 0x81000036 (0000ms, 0643ms total)
T1A70 009:318 JLINK_ReadReg(MSP)  returns 0x20000400 (0000ms, 0643ms total)
T1A70 009:318 JLINK_ReadReg(PSP)  returns 0x20001000 (0001ms, 0644ms total)
T1A70 009:319 JLINK_ReadReg(CFBP)  returns 0x00000000 (0000ms, 0644ms total)
T10F4 009:319 JLINK_ReadMem (0x20000404, 0x0004 Bytes, ...) -- CPU_ReadMem(64 bytes @ 0x20000400) -- Updating C cache (64 bytes @ 0x20000400) -- Read from C cache (4 bytes @ 0x20000404) - Data: F9 FF FF FF  returns 0x00 (0001ms, 0645ms total)
T10F4 009:320 JLINK_ReadMem (0x20000420, 0x0004 Bytes, ...) -- Read from C cache (4 bytes @ 0x20000420) - Data: 14 01 00 08  returns 0x00 (0000ms, 0645ms total)
T10F4 009:320 JLINK_ReadMem (0x20000424, 0x0004 Bytes, ...) -- Read from C cache (4 bytes @ 0x20000424) - Data: 00 00 00 01  returns 0x00 (0000ms, 0645ms total)
T10F4 009:320 JLINK_ReadMem (0x2000041C, 0x0004 Bytes, ...) -- Read from C cache (4 bytes @ 0x2000041C) - Data: 1B 02 00 08  returns 0x00 (0000ms, 0645ms total)
T10F4 009:320 JLINK_ReadMem (0xE000ED28, 0x0004 Bytes, ...) -- CPU_ReadMem(4 bytes @ 0xE000ED28) - Data: 00 00 00 00  returns 0x00 (0001ms, 0646ms total)
T10F4 009:321 JLINK_ReadMem (0x2000042C, 0x0004 Bytes, ...) -- Read from C cache (4 bytes @ 0x2000042C) - Data: 55 10 00 08  returns 0x00 (0000ms, 0646ms total)
T10F4 009:326 JLINK_ReadMem (0x08000236, 0x0002 Bytes, ...) -- CPU_ReadMem(64 bytes @ 0x08000200) -- Updating C cache (64 bytes @ 0x08000200) -- Read from C cache (2 bytes @ 0x08000236) - Data: 40 F2  returns 0x00 (0001ms, 0647ms total)
T10F4 009:327 JLINK_ReadMem (0x08000238, 0x003C Bytes, ...) -- CPU_ReadMem(64 bytes @ 0x08000240) -- Updating C cache (64 bytes @ 0x08000240) -- Read from C cache (60 bytes @ 0x08000238) - Data: 25 51 05 48 00 F0 E2 FD 03 48 00 F0 35 FD 03 49 ...  returns 0x00 (0001ms, 0648ms total)
T1A70 009:446 JLINK_Step() -- Read from C cache (2 bytes @ 0x08000236) -- CPU_ReadMem(4 bytes @ 0xE0001004) -- Read from C cache (2 bytes @ 0x08000238) -- Not simulated -- CPU_WriteMem(4 bytes @ 0xE0002008) -- CPU_WriteMem(4 bytes @ 0xE000200C)  returns 0x00 (0005ms, 0653ms total)
T1A70 009:451 JLINK_ReadReg(R15 (PC))  returns 0x0800023A (0000ms, 0653ms total)
T1A70 009:451 JLINK_ReadReg(XPSR)  returns 0x81000036 (0000ms, 0653ms total)
T1A70 009:451 JLINK_Step() -- CPU_ReadMem(64 bytes @ 0x08000200) -- Updating C cache (64 bytes @ 0x08000200) -- Read from C cache (2 bytes @ 0x0800023A) -- CPU_ReadMem(4 bytes @ 0xE0001004) -- CPU_ReadMem(64 bytes @ 0x08000240) -- Updating C cache (64 bytes @ 0x08000240) -- Read from C cache (4 bytes @ 0x08000250) -- Simulated  returns 0x00 (0003ms, 0656ms total)
T1A70 009:454 JLINK_ReadReg(R15 (PC))  returns 0x0800023C (0000ms, 0656ms total)
T1A70 009:454 JLINK_ReadReg(XPSR)  returns 0x81000036 (0000ms, 0656ms total)
T1A70 009:454 JLINK_SetBPEx(Addr = 0x08000240, Type = 0xFFFFFFF2)  returns 0x00000006 (0000ms, 0656ms total)
T1A70 009:454 JLINK_SetBPEx(Addr = 0x08000220, Type = 0xFFFFFFF2)  returns 0x00000007 (0000ms, 0656ms total)
T1A70 009:454 JLINK_Go() -- CPU_WriteMem(4 bytes @ 0xE0002000) -- CPU_WriteMem(4 bytes @ 0xE0002000) -- CPU_WriteMem(4 bytes @ 0xE0002008) -- CPU_WriteMem(4 bytes @ 0xE000200C) -- CPU_WriteMem(4 bytes @ 0xE0001004) (0003ms, 0659ms total)
T1A70 009:559 JLINK_IsHalted()  returns TRUE (0003ms, 0662ms total)
T1A70 009:562 JLINK_Halt()  returns 0x00 (0000ms, 0659ms total)
T1A70 009:562 JLINK_IsHalted()  returns TRUE (0000ms, 0659ms total)
T1A70 009:562 JLINK_IsHalted()  returns TRUE (0000ms, 0659ms total)
T1A70 009:562 JLINK_IsHalted()  returns TRUE (0000ms, 0659ms total)
T1A70 009:562 JLINK_ReadReg(R15 (PC))  returns 0x08000240 (0000ms, 0659ms total)
T1A70 009:562 JLINK_ReadReg(XPSR)  returns 0x81000036 (0000ms, 0659ms total)
T1A70 009:562 JLINK_ClrBPEx(BPHandle = 0x00000006)  returns 0x00 (0000ms, 0659ms total)
T1A70 009:562 JLINK_ClrBPEx(BPHandle = 0x00000007)  returns 0x00 (0000ms, 0659ms total)
T1A70 009:562 JLINK_ReadMemU32(0xE000ED30, 0x0001 Items, ...) -- CPU_ReadMem(4 bytes @ 0xE000ED30) - Data: 03 00 00 00  returns 0x01 (0001ms, 0660ms total)
T1A70 009:563 JLINK_ReadMemU32(0xE0001028, 0x0001 Items, ...) -- CPU_ReadMem(4 bytes @ 0xE0001028) - Data: 00 00 00 00  returns 0x01 (0000ms, 0660ms total)
T1A70 009:563 JLINK_ReadMemU32(0xE0001038, 0x0001 Items, ...) -- CPU_ReadMem(4 bytes @ 0xE0001038) - Data: 00 02 00 00  returns 0x01 (0001ms, 0661ms total)
T1A70 009:564 JLINK_ReadMemU32(0xE0001048, 0x0001 Items, ...) -- CPU_ReadMem(4 bytes @ 0xE0001048) - Data: 00 00 00 00  returns 0x01 (0000ms, 0661ms total)
T1A70 009:564 JLINK_ReadMemU32(0xE0001058, 0x0001 Items, ...) -- CPU_ReadMem(4 bytes @ 0xE0001058) - Data: 00 00 00 00  returns 0x01 (0001ms, 0662ms total)
T1A70 009:565 JLINK_ReadReg(R0)  returns 0x40004400 (0000ms, 0662ms total)
T1A70 009:565 JLINK_ReadReg(R1)  returns 0x00000525 (0000ms, 0662ms total)
T1A70 009:565 JLINK_ReadReg(R2)  returns 0x00000005 (0000ms, 0662ms total)
T1A70 009:565 JLINK_ReadReg(R3)  returns 0x00000020 (0000ms, 0662ms total)
T1A70 009:565 JLINK_ReadReg(R4)  returns 0x0800109C (0000ms, 0662ms total)
T1A70 009:565 JLINK_ReadReg(R5)  returns 0x0800109C (0000ms, 0662ms total)
T1A70 009:565 JLINK_ReadReg(R6)  returns 0x00000000 (0000ms, 0662ms total)
T1A70 009:565 JLINK_ReadReg(R7)  returns 0x00000000 (0000ms, 0662ms total)
T1A70 009:565 JLINK_ReadReg(R8)  returns 0x00000000 (0000ms, 0662ms total)
T1A70 009:565 JLINK_ReadReg(R9)  returns 0x20000160 (0000ms, 0662ms total)
T1A70 009:565 JLINK_ReadReg(R10)  returns 0x00000000 (0000ms, 0662ms total)
T1A70 009:565 JLINK_ReadReg(R11)  returns 0x00000000 (0000ms, 0662ms total)
T1A70 009:565 JLINK_ReadReg(R12)  returns 0x00000004 (0000ms, 0662ms total)
T1A70 009:565 JLINK_ReadReg(R13 (SP))  returns 0x20000400 (0000ms, 0662ms total)
T1A70 009:565 JLINK_ReadReg(R14)  returns 0x08000241 (0000ms, 0662ms total)
T1A70 009:565 JLINK_ReadReg(R15 (PC))  returns 0x08000240 (0001ms, 0663ms total)
T1A70 009:566 JLINK_ReadReg(XPSR)  returns 0x81000036 (0000ms, 0663ms total)
T1A70 009:566 JLINK_ReadReg(MSP)  returns 0x20000400 (0000ms, 0663ms total)
T1A70 009:566 JLINK_ReadReg(PSP)  returns 0x20001000 (0000ms, 0663ms total)
T1A70 009:566 JLINK_ReadReg(CFBP)  returns 0x00000000 (0000ms, 0663ms total)
T10F4 009:566 JLINK_ReadMem (0x20000404, 0x0004 Bytes, ...) -- CPU_ReadMem(64 bytes @ 0x20000400) -- Updating C cache (64 bytes @ 0x20000400) -- Read from C cache (4 bytes @ 0x20000404) - Data: F9 FF FF FF  returns 0x00 (0001ms, 0664ms total)
T10F4 009:567 JLINK_ReadMem (0x20000420, 0x0004 Bytes, ...) -- Read from C cache (4 bytes @ 0x20000420) - Data: 14 01 00 08  returns 0x00 (0000ms, 0664ms total)
T10F4 009:567 JLINK_ReadMem (0x20000424, 0x0004 Bytes, ...) -- Read from C cache (4 bytes @ 0x20000424) - Data: 00 00 00 01  returns 0x00 (0000ms, 0664ms total)
T10F4 009:567 JLINK_ReadMem (0x2000041C, 0x0004 Bytes, ...) -- Read from C cache (4 bytes @ 0x2000041C) - Data: 1B 02 00 08  returns 0x00 (0000ms, 0664ms total)
T10F4 009:567 JLINK_ReadMem (0xE000ED28, 0x0004 Bytes, ...) -- CPU_ReadMem(4 bytes @ 0xE000ED28) - Data: 00 00 00 00  returns 0x00 (0001ms, 0665ms total)
T10F4 009:568 JLINK_ReadMem (0x2000042C, 0x0004 Bytes, ...) -- Read from C cache (4 bytes @ 0x2000042C) - Data: 55 10 00 08  returns 0x00 (0000ms, 0665ms total)
T10F4 009:571 JLINK_ReadMem (0x08000240, 0x003C Bytes, ...) -- CPU_ReadMem(64 bytes @ 0x08000240) -- Updating C cache (64 bytes @ 0x08000240) -- Read from C cache (60 bytes @ 0x08000240) - Data: 03 48 00 F0 35 FD 03 49 08 70 10 BD 00 08 01 40 ...  returns 0x00 (0001ms, 0666ms total)
T1A70 009:710 JLINK_Step() -- Read from C cache (2 bytes @ 0x08000240) -- CPU_ReadMem(4 bytes @ 0xE0001004) -- Read from C cache (4 bytes @ 0x08000250) -- Simulated  returns 0x00 (0000ms, 0666ms total)
T1A70 009:710 JLINK_ReadReg(R15 (PC))  returns 0x08000242 (0001ms, 0667ms total)
T1A70 009:711 JLINK_ReadReg(XPSR)  returns 0x81000036 (0000ms, 0667ms total)
T1A70 009:711 JLINK_SetBPEx(Addr = 0x08000246, Type = 0xFFFFFFF2)  returns 0x00000008 (0000ms, 0667ms total)
T1A70 009:711 JLINK_SetBPEx(Addr = 0x08000220, Type = 0xFFFFFFF2)  returns 0x00000009 (0000ms, 0667ms total)
T1A70 009:711 JLINK_Go() -- CPU_WriteMem(4 bytes @ 0xE0002000) -- CPU_WriteMem(4 bytes @ 0xE0002000) -- CPU_WriteMem(4 bytes @ 0xE0002008) -- CPU_WriteMem(4 bytes @ 0xE0001004) (0003ms, 0670ms total)
T1A70 009:814 JLINK_IsHalted()  returns TRUE (0003ms, 0673ms total)
T1A70 009:817 JLINK_Halt()  returns 0x00 (0000ms, 0670ms total)
T1A70 009:817 JLINK_IsHalted()  returns TRUE (0000ms, 0670ms total)
T1A70 009:817 JLINK_IsHalted()  returns TRUE (0000ms, 0670ms total)
T1A70 009:817 JLINK_IsHalted()  returns TRUE (0000ms, 0670ms total)
T1A70 009:817 JLINK_ReadReg(R15 (PC))  returns 0x08000246 (0000ms, 0670ms total)
T1A70 009:817 JLINK_ReadReg(XPSR)  returns 0x81000036 (0000ms, 0670ms total)
T1A70 009:817 JLINK_ClrBPEx(BPHandle = 0x00000008)  returns 0x00 (0000ms, 0670ms total)
T1A70 009:817 JLINK_ClrBPEx(BPHandle = 0x00000009)  returns 0x00 (0000ms, 0670ms total)
T1A70 009:817 JLINK_ReadMemU32(0xE000ED30, 0x0001 Items, ...) -- CPU_ReadMem(4 bytes @ 0xE000ED30) - Data: 03 00 00 00  returns 0x01 (0001ms, 0671ms total)
T1A70 009:818 JLINK_ReadMemU32(0xE0001028, 0x0001 Items, ...) -- CPU_ReadMem(4 bytes @ 0xE0001028) - Data: 00 00 00 00  returns 0x01 (0000ms, 0671ms total)
T1A70 009:818 JLINK_ReadMemU32(0xE0001038, 0x0001 Items, ...) -- CPU_ReadMem(4 bytes @ 0xE0001038) - Data: 00 02 00 00  returns 0x01 (0001ms, 0672ms total)
T1A70 009:819 JLINK_ReadMemU32(0xE0001048, 0x0001 Items, ...) -- CPU_ReadMem(4 bytes @ 0xE0001048) - Data: 00 00 00 00  returns 0x01 (0000ms, 0672ms total)
T1A70 009:819 JLINK_ReadMemU32(0xE0001058, 0x0001 Items, ...) -- CPU_ReadMem(4 bytes @ 0xE0001058) - Data: 00 00 00 00  returns 0x01 (0001ms, 0673ms total)
T1A70 009:820 JLINK_Step() -- CPU_ReadMem(64 bytes @ 0x08000240) -- Updating C cache (64 bytes @ 0x08000240) -- Read from C cache (2 bytes @ 0x08000246) -- CPU_ReadMem(4 bytes @ 0xE0001004) -- Read from C cache (4 bytes @ 0x08000254) -- Simulated  returns 0x00 (0001ms, 0674ms total)
T1A70 009:821 JLINK_ReadReg(R15 (PC))  returns 0x08000248 (0000ms, 0674ms total)
T1A70 009:822 JLINK_ReadReg(XPSR)  returns 0x81000036 (0000ms, 0675ms total)
T1A70 009:822 JLINK_Step() -- Read from C cache (2 bytes @ 0x08000248) -- CPU_WriteMem(1 bytes @ 0x20000000) -- Simulated  returns 0x00 (0000ms, 0675ms total)
T1A70 009:822 JLINK_ReadReg(R15 (PC))  returns 0x0800024A (0000ms, 0675ms total)
T1A70 009:822 JLINK_ReadReg(XPSR)  returns 0x81000036 (0000ms, 0675ms total)
T1A70 009:822 JLINK_ReadReg(R0)  returns 0x00000031 (0000ms, 0675ms total)
T1A70 009:823 JLINK_ReadReg(R1)  returns 0x20000000 (0000ms, 0676ms total)
T1A70 009:823 JLINK_ReadReg(R2)  returns 0x00000005 (0000ms, 0676ms total)
T1A70 009:823 JLINK_ReadReg(R3)  returns 0x00000020 (0000ms, 0676ms total)
T1A70 009:823 JLINK_ReadReg(R4)  returns 0x0800109C (0000ms, 0676ms total)
T1A70 009:823 JLINK_ReadReg(R5)  returns 0x0800109C (0000ms, 0676ms total)
T1A70 009:823 JLINK_ReadReg(R6)  returns 0x00000000 (0000ms, 0676ms total)
T1A70 009:823 JLINK_ReadReg(R7)  returns 0x00000000 (0000ms, 0676ms total)
T1A70 009:823 JLINK_ReadReg(R8)  returns 0x00000000 (0000ms, 0676ms total)
T1A70 009:823 JLINK_ReadReg(R9)  returns 0x20000160 (0000ms, 0676ms total)
T1A70 009:823 JLINK_ReadReg(R10)  returns 0x00000000 (0000ms, 0676ms total)
T1A70 009:823 JLINK_ReadReg(R11)  returns 0x00000000 (0000ms, 0676ms total)
T1A70 009:823 JLINK_ReadReg(R12)  returns 0x00000004 (0000ms, 0676ms total)
T1A70 009:823 JLINK_ReadReg(R13 (SP))  returns 0x20000400 (0000ms, 0676ms total)
T1A70 009:823 JLINK_ReadReg(R14)  returns 0x08000247 (0001ms, 0677ms total)
T1A70 009:824 JLINK_ReadReg(R15 (PC))  returns 0x0800024A (0000ms, 0677ms total)
T1A70 009:824 JLINK_ReadReg(XPSR)  returns 0x81000036 (0000ms, 0677ms total)
T1A70 009:824 JLINK_ReadReg(MSP)  returns 0x20000400 (0000ms, 0677ms total)
T1A70 009:824 JLINK_ReadReg(PSP)  returns 0x20001000 (0000ms, 0677ms total)
T1A70 009:824 JLINK_ReadReg(CFBP)  returns 0x00000000 (0000ms, 0677ms total)
T10F4 009:824 JLINK_ReadMem (0x20000404, 0x0004 Bytes, ...) -- CPU_ReadMem(64 bytes @ 0x20000400) -- Updating C cache (64 bytes @ 0x20000400) -- Read from C cache (4 bytes @ 0x20000404) - Data: F9 FF FF FF  returns 0x00 (0002ms, 0679ms total)
T10F4 009:826 JLINK_ReadMem (0x20000420, 0x0004 Bytes, ...) -- Read from C cache (4 bytes @ 0x20000420) - Data: 14 01 00 08  returns 0x00 (0000ms, 0679ms total)
T10F4 009:826 JLINK_ReadMem (0x20000424, 0x0004 Bytes, ...) -- Read from C cache (4 bytes @ 0x20000424) - Data: 00 00 00 01  returns 0x00 (0000ms, 0679ms total)
T10F4 009:826 JLINK_ReadMem (0x2000041C, 0x0004 Bytes, ...) -- Read from C cache (4 bytes @ 0x2000041C) - Data: 1B 02 00 08  returns 0x00 (0000ms, 0679ms total)
T10F4 009:826 JLINK_ReadMem (0xE000ED28, 0x0004 Bytes, ...) -- CPU_ReadMem(4 bytes @ 0xE000ED28) - Data: 00 00 00 00  returns 0x00 (0001ms, 0680ms total)
T10F4 009:827 JLINK_ReadMem (0x2000042C, 0x0004 Bytes, ...) -- Read from C cache (4 bytes @ 0x2000042C) - Data: 55 10 00 08  returns 0x00 (0000ms, 0680ms total)
T10F4 009:830 JLINK_ReadMem (0x0800024A, 0x0002 Bytes, ...) -- Read from C cache (2 bytes @ 0x0800024A) - Data: 10 BD  returns 0x00 (0000ms, 0680ms total)
T10F4 009:830 JLINK_ReadMem (0x0800024C, 0x003C Bytes, ...) -- CPU_ReadMem(64 bytes @ 0x08000280) -- Updating C cache (64 bytes @ 0x08000280) -- Read from C cache (60 bytes @ 0x0800024C) - Data: 00 08 01 40 00 44 00 40 00 00 00 20 31 49 01 43 ...  returns 0x00 (0001ms, 0681ms total)
T10F4 011:300 JLINK_ReadMem (0x08000240, 0x003C Bytes, ...) -- Read from C cache (60 bytes @ 0x08000240) - Data: 03 48 00 F0 35 FD 03 49 08 70 10 BD 00 08 01 40 ...  returns 0x00 (0000ms, 0681ms total)
T10F4 011:429 JLINK_ReadMem (0x20000000, 0x0001 Bytes, ...) -- CPU_ReadMem(64 bytes @ 0x20000000) -- Updating C cache (64 bytes @ 0x20000000) -- Read from C cache (1 bytes @ 0x20000000) - Data: 31  returns 0x00 (0001ms, 0682ms total)
T1A70 014:151 JLINK_Step() -- Read from C cache (2 bytes @ 0x0800024A) -- Not simulated -- CPU_WriteMem(4 bytes @ 0xE0002008) -- CPU_WriteMem(4 bytes @ 0xE000200C) -- CPU_WriteMem(4 bytes @ 0xE0001004)  returns 0x00 (0007ms, 0689ms total)
T1A70 014:158 JLINK_ReadReg(R15 (PC))  returns 0x08000114 (0000ms, 0689ms total)
T1A70 014:158 JLINK_ReadReg(XPSR)  returns 0x01000000 (0000ms, 0689ms total)
T1A70 014:158 JLINK_ReadMem (0x08000112, 0x0002 Bytes, ...) -- CPU_ReadMem(64 bytes @ 0x08000100) -- Updating C cache (64 bytes @ 0x08000100) -- Read from C cache (2 bytes @ 0x08000112) - Data: 00 BF  returns 0x00 (0001ms, 0690ms total)
T1A70 014:159 JLINK_ReadMem (0x08000114, 0x003C Bytes, ...) -- CPU_ReadMem(64 bytes @ 0x08000140) -- Updating C cache (64 bytes @ 0x08000140) -- Read from C cache (60 bytes @ 0x08000114) - Data: FE E7 00 00 08 B5 04 20 AD F8 00 00 18 20 8D F8 ...  returns 0x00 (0001ms, 0691ms total)
T1A70 014:160 JLINK_ReadReg(R0)  returns 0x40004400 (0000ms, 0691ms total)
T1A70 014:160 JLINK_ReadReg(R1)  returns 0x00000001 (0000ms, 0691ms total)
T1A70 014:160 JLINK_ReadReg(R2)  returns 0x0000202C (0000ms, 0691ms total)
T1A70 014:160 JLINK_ReadReg(R3)  returns 0xFFFFFFFD (0000ms, 0691ms total)
T1A70 014:160 JLINK_ReadReg(R4)  returns 0x0800109C (0000ms, 0691ms total)
T1A70 014:160 JLINK_ReadReg(R5)  returns 0x0800109C (0001ms, 0692ms total)
T1A70 014:161 JLINK_ReadReg(R6)  returns 0x00000000 (0000ms, 0692ms total)
T1A70 014:161 JLINK_ReadReg(R7)  returns 0x00000000 (0000ms, 0692ms total)
T1A70 014:161 JLINK_ReadReg(R8)  returns 0x00000000 (0000ms, 0692ms total)
T1A70 014:161 JLINK_ReadReg(R9)  returns 0x20000160 (0000ms, 0692ms total)
T1A70 014:161 JLINK_ReadReg(R10)  returns 0x00000000 (0000ms, 0692ms total)
T1A70 014:161 JLINK_ReadReg(R11)  returns 0x00000000 (0000ms, 0692ms total)
T1A70 014:161 JLINK_ReadReg(R12)  returns 0x00000004 (0000ms, 0692ms total)
T1A70 014:161 JLINK_ReadReg(R13 (SP))  returns 0x20000428 (0000ms, 0692ms total)
T1A70 014:161 JLINK_ReadReg(R14)  returns 0x0800021B (0000ms, 0692ms total)
T1A70 014:161 JLINK_ReadReg(R15 (PC))  returns 0x08000114 (0000ms, 0692ms total)
T1A70 014:161 JLINK_ReadReg(XPSR)  returns 0x01000000 (0000ms, 0692ms total)
T1A70 014:161 JLINK_ReadReg(MSP)  returns 0x20000428 (0000ms, 0692ms total)
T1A70 014:161 JLINK_ReadReg(PSP)  returns 0x20001000 (0000ms, 0692ms total)
T1A70 014:161 JLINK_ReadReg(CFBP)  returns 0x00000000 (0000ms, 0692ms total)
T10F4 014:161 JLINK_ReadMem (0x2000042C, 0x0004 Bytes, ...) -- CPU_ReadMem(64 bytes @ 0x20000400) -- Updating C cache (64 bytes @ 0x20000400) -- Read from C cache (4 bytes @ 0x2000042C) - Data: 55 10 00 08  returns 0x00 (0001ms, 0693ms total)
T10F4 014:165 JLINK_ReadMem (0x20000000, 0x0001 Bytes, ...) -- CPU_ReadMem(64 bytes @ 0x20000000) -- Updating C cache (64 bytes @ 0x20000000) -- Read from C cache (1 bytes @ 0x20000000) - Data: 31  returns 0x00 (0001ms, 0694ms total)
T10F4 014:168 JLINK_ReadMem (0x08000114, 0x003C Bytes, ...) -- Read from C cache (60 bytes @ 0x08000114) - Data: FE E7 00 00 08 B5 04 20 AD F8 00 00 18 20 8D F8 ...  returns 0x00 (0000ms, 0694ms total)
T10F4 014:187 JLINK_ReadMem (0x08000112, 0x0002 Bytes, ...) -- Read from C cache (2 bytes @ 0x08000112) - Data: 00 BF  returns 0x00 (0001ms, 0695ms total)
T1A70 014:350 JLINK_Step() -- Read from C cache (2 bytes @ 0x08000114) -- CPU_ReadMem(4 bytes @ 0xE0001004) -- Simulated  returns 0x00 (0001ms, 0696ms total)
T1A70 014:351 JLINK_ReadReg(R15 (PC))  returns 0x08000114 (0000ms, 0696ms total)
T1A70 014:351 JLINK_ReadReg(XPSR)  returns 0x01000000 (0000ms, 0696ms total)
T1A70 014:351 JLINK_ReadReg(R0)  returns 0x40004400 (0000ms, 0696ms total)
T1A70 014:351 JLINK_ReadReg(R1)  returns 0x00000001 (0000ms, 0696ms total)
T1A70 014:351 JLINK_ReadReg(R2)  returns 0x0000202C (0000ms, 0696ms total)
T1A70 014:351 JLINK_ReadReg(R3)  returns 0xFFFFFFFD (0000ms, 0696ms total)
T1A70 014:351 JLINK_ReadReg(R4)  returns 0x0800109C (0001ms, 0697ms total)
T1A70 014:352 JLINK_ReadReg(R5)  returns 0x0800109C (0000ms, 0697ms total)
T1A70 014:352 JLINK_ReadReg(R6)  returns 0x00000000 (0000ms, 0697ms total)
T1A70 014:352 JLINK_ReadReg(R7)  returns 0x00000000 (0000ms, 0697ms total)
T1A70 014:352 JLINK_ReadReg(R8)  returns 0x00000000 (0000ms, 0697ms total)
T1A70 014:352 JLINK_ReadReg(R9)  returns 0x20000160 (0000ms, 0697ms total)
T1A70 014:352 JLINK_ReadReg(R10)  returns 0x00000000 (0000ms, 0697ms total)
T1A70 014:352 JLINK_ReadReg(R11)  returns 0x00000000 (0000ms, 0697ms total)
T1A70 014:352 JLINK_ReadReg(R12)  returns 0x00000004 (0000ms, 0697ms total)
T1A70 014:352 JLINK_ReadReg(R13 (SP))  returns 0x20000428 (0000ms, 0697ms total)
T1A70 014:352 JLINK_ReadReg(R14)  returns 0x0800021B (0000ms, 0697ms total)
T1A70 014:352 JLINK_ReadReg(R15 (PC))  returns 0x08000114 (0000ms, 0697ms total)
T1A70 014:352 JLINK_ReadReg(XPSR)  returns 0x01000000 (0000ms, 0697ms total)
T1A70 014:352 JLINK_ReadReg(MSP)  returns 0x20000428 (0000ms, 0697ms total)
T1A70 014:352 JLINK_ReadReg(PSP)  returns 0x20001000 (0000ms, 0697ms total)
T1A70 014:353 JLINK_ReadReg(CFBP)  returns 0x00000000 (0000ms, 0698ms total)
T10F4 014:354 JLINK_ReadMem (0x2000042C, 0x0004 Bytes, ...) -- Read from C cache (4 bytes @ 0x2000042C) - Data: 55 10 00 08  returns 0x00 (0001ms, 0699ms total)
T10F4 014:356 JLINK_ReadMem (0x20000000, 0x0001 Bytes, ...) -- Read from C cache (1 bytes @ 0x20000000) - Data: 31  returns 0x00 (0000ms, 0699ms total)
T1A70 014:749 JLINK_ReadMem (0x08000114, 0x003C Bytes, ...) -- Read from C cache (60 bytes @ 0x08000114) - Data: FE E7 00 00 08 B5 04 20 AD F8 00 00 18 20 8D F8 ...  returns 0x00 (0000ms, 0699ms total)
T1A70 014:749 JLINK_Step() -- Read from C cache (2 bytes @ 0x08000114) -- Simulated  returns 0x00 (0001ms, 0700ms total)
T1A70 014:750 JLINK_ReadReg(R15 (PC))  returns 0x08000114 (0000ms, 0700ms total)
T1A70 014:750 JLINK_ReadReg(XPSR)  returns 0x01000000 (0000ms, 0700ms total)
T1A70 014:750 JLINK_ReadMem (0x08000112, 0x0002 Bytes, ...) -- Read from C cache (2 bytes @ 0x08000112) - Data: 00 BF  returns 0x00 (0000ms, 0700ms total)
T1A70 014:750 JLINK_ReadReg(R0)  returns 0x40004400 (0000ms, 0700ms total)
T1A70 014:750 JLINK_ReadReg(R1)  returns 0x00000001 (0000ms, 0700ms total)
T1A70 014:750 JLINK_ReadReg(R2)  returns 0x0000202C (0000ms, 0700ms total)
T1A70 014:750 JLINK_ReadReg(R3)  returns 0xFFFFFFFD (0000ms, 0700ms total)
T1A70 014:750 JLINK_ReadReg(R4)  returns 0x0800109C (0000ms, 0700ms total)
T1A70 014:750 JLINK_ReadReg(R5)  returns 0x0800109C (0000ms, 0700ms total)
T1A70 014:750 JLINK_ReadReg(R6)  returns 0x00000000 (0000ms, 0700ms total)
T1A70 014:750 JLINK_ReadReg(R7)  returns 0x00000000 (0000ms, 0700ms total)
T1A70 014:750 JLINK_ReadReg(R8)  returns 0x00000000 (0000ms, 0700ms total)
T1A70 014:751 JLINK_ReadReg(R9)  returns 0x20000160 (0000ms, 0701ms total)
T1A70 014:751 JLINK_ReadReg(R10)  returns 0x00000000 (0000ms, 0701ms total)
T1A70 014:751 JLINK_ReadReg(R11)  returns 0x00000000 (0000ms, 0701ms total)
T1A70 014:751 JLINK_ReadReg(R12)  returns 0x00000004 (0000ms, 0701ms total)
T1A70 014:751 JLINK_ReadReg(R13 (SP))  returns 0x20000428 (0000ms, 0701ms total)
T1A70 014:751 JLINK_ReadReg(R14)  returns 0x0800021B (0000ms, 0701ms total)
T1A70 014:751 JLINK_ReadReg(R15 (PC))  returns 0x08000114 (0000ms, 0701ms total)
T1A70 014:751 JLINK_ReadReg(XPSR)  returns 0x01000000 (0000ms, 0701ms total)
T1A70 014:751 JLINK_ReadReg(MSP)  returns 0x20000428 (0000ms, 0701ms total)
T1A70 014:751 JLINK_ReadReg(PSP)  returns 0x20001000 (0000ms, 0701ms total)
T1A70 014:751 JLINK_ReadReg(CFBP)  returns 0x00000000 (0000ms, 0701ms total)
T10F4 014:752 JLINK_ReadMem (0x2000042C, 0x0004 Bytes, ...) -- Read from C cache (4 bytes @ 0x2000042C) - Data: 55 10 00 08  returns 0x00 (0000ms, 0701ms total)
T10F4 014:753 JLINK_ReadMem (0x20000000, 0x0001 Bytes, ...) -- Read from C cache (1 bytes @ 0x20000000) - Data: 31  returns 0x00 (0000ms, 0701ms total)
T1A70 014:972 JLINK_ReadMem (0x08000114, 0x003C Bytes, ...) -- Read from C cache (60 bytes @ 0x08000114) - Data: FE E7 00 00 08 B5 04 20 AD F8 00 00 18 20 8D F8 ...  returns 0x00 (0000ms, 0701ms total)
T1A70 014:972 JLINK_Step() -- Read from C cache (2 bytes @ 0x08000114) -- Simulated  returns 0x00 (0001ms, 0702ms total)
T1A70 014:973 JLINK_ReadReg(R15 (PC))  returns 0x08000114 (0000ms, 0702ms total)
T1A70 014:973 JLINK_ReadReg(XPSR)  returns 0x01000000 (0000ms, 0702ms total)
T1A70 014:973 JLINK_ReadMem (0x08000112, 0x0002 Bytes, ...) -- Read from C cache (2 bytes @ 0x08000112) - Data: 00 BF  returns 0x00 (0000ms, 0702ms total)
T1A70 014:973 JLINK_ReadReg(R0)  returns 0x40004400 (0000ms, 0702ms total)
T1A70 014:973 JLINK_ReadReg(R1)  returns 0x00000001 (0000ms, 0702ms total)
T1A70 014:973 JLINK_ReadReg(R2)  returns 0x0000202C (0000ms, 0702ms total)
T1A70 014:973 JLINK_ReadReg(R3)  returns 0xFFFFFFFD (0000ms, 0702ms total)
T1A70 014:973 JLINK_ReadReg(R4)  returns 0x0800109C (0000ms, 0702ms total)
